
**** 04/20/15 23:11:27 ********* PSpice 9.2 (Mar 2000) ******** ID# 1 ********

 ** Profile: "SCHEMATIC1-sp"  [ c:\users\winda\desktop\saic\sim\zas-schematic1-sp.sim ] 


 ****     CIRCUIT DESCRIPTION


******************************************************************************




** Creating circuit file "zas-schematic1-sp.sim.cir" 
** WARNING: THIS AUTOMATICALLY GENERATED FILE MAY BE OVERWRITTEN BY SUBSEQUENT SIMULATIONS

*Libraries: 
* Local Libraries :
* From [PSPICE NETLIST] section of C:\Program Files\Orcad\PSpice\PSpice.ini file:
.lib "nom.lib" 

*Analysis directives: 
.TRAN  0 10ms 0 
.PROBE V(*) I(*) W(*) D(*) NOISE(*) 
.INC ".\zas-SCHEMATIC1.net" 



**** INCLUDING zas-SCHEMATIC1.net ****
* source ZAS
C_C4         N16338 0  100u  
C_C         0 N16833  47n  
C_C2         0 N16338  100n  
Q_Q1         N17970 N18508 0 BC107A 
C_C1         N18508 TRIG  1n  
V_V2         TRIG 0  
+PULSE 5 0 1m 1n 1n 100u 1000u
C_C3         N16918 0  1u  
R_Ra         N17414 N16338  760  
R_Rb         N16833 N17414  1p  
V_Vcc         N16338 0 5Vdc
R_R3         N17970 N16338  1k  
D_D1         0 N18508 D1N3064 
R_R2         0 N18508  1k  
X_U1         0 N17970 out N16338 N16918 N17414 N16833 N16338 555B

**** RESUMING zas-schematic1-sp.sim.cir ****
.END

**** 04/20/15 23:11:27 ********* PSpice 9.2 (Mar 2000) ******** ID# 1 ********

 ** Profile: "SCHEMATIC1-sp"  [ c:\users\winda\desktop\saic\sim\zas-schematic1-sp.sim ] 


 ****     Diode MODEL PARAMETERS


******************************************************************************




               D1N3064         
          IS  168.100000E-21 
         ISR   24.540000E-09 
          BV  100            
         IBV  100.000000E-06 
          RS     .1          
          TT    5.771000E-09 
         CJO    2.000000E-12 
          VJ     .75         
           M     .3333       


**** 04/20/15 23:11:27 ********* PSpice 9.2 (Mar 2000) ******** ID# 1 ********

 ** Profile: "SCHEMATIC1-sp"  [ c:\users\winda\desktop\saic\sim\zas-schematic1-sp.sim ] 


 ****     BJT MODEL PARAMETERS


******************************************************************************




               BC107A          X_U1.qnpn555    X_U1.qpnp555    
               NPN             NPN             PNP             
          IS    7.049000E-15   14.340000E-15  650.600000E-18 
          BF  375.5            65.62           70.35         
          NF    1               1               1            
         VAF  116.3            74.03          115.7          
         IKF    4.589            .02             .02         
         ISE    7.049000E-15   19.480000E-15  180.500000E-15 
          NE    1.281           1.208           1.829        
          BR    2.611           9.715           4.146        
          NR    1               1               1            
         IKR    5.313                                        
         ISC  121.700000E-12                                 
          NC    1.865                                        
          RB                   10              10            
          RC    1.464           1                .715        
         CJE   11.500000E-12   40.000000E-12   40.000000E-12 
         VJE     .5                                          
         MJE     .2717           .377            .3357       
         CJC    5.380000E-12   40.000000E-12   40.000000E-12 
         VJC     .6218                                       
         MJC     .329            .3416           .5383       
          TF  451.000000E-12    1.000000E-09    1.000000E-09 
         XTF   17.43            3               1.7          
         VTF   10               1.7             5            
         ITF    6.194            .6              .65         
          TR   10.000000E-09   58.980000E-09  119.900000E-09 
         XTB    1.5             1.5             1.5          
          CN    2.42            2.42            2.2          
           D     .87             .87             .52         


**** 04/20/15 23:11:27 ********* PSpice 9.2 (Mar 2000) ******** ID# 1 ********

 ** Profile: "SCHEMATIC1-sp"  [ c:\users\winda\desktop\saic\sim\zas-schematic1-sp.sim ] 


 ****     INITIAL TRANSIENT SOLUTION       TEMPERATURE =   27.000 DEG C


******************************************************************************



 NODE   VOLTAGE     NODE   VOLTAGE     NODE   VOLTAGE     NODE   VOLTAGE


(  out)     .0038  ( TRIG)    5.0000  (N16338)    5.0000 (N16833)     .0658     

(N16918)    3.3319 (N17414)     .0658 (N17970)    5.0000 (N18508) 123.6E-09     

(X_U1.9)    4.2930 (X_U1.10)    1.4490                   (X_U1.11)     .7606    

(X_U1.12)     .0127                   (X_U1.13)     .6618                       

(X_U1.14)     .6397                   (X_U1.15)     .0026                       

(X_U1.16)     .6028                   (X_U1.17)    4.3139                       

(X_U1.18)    4.8310                   (X_U1.19)    2.8603                       

(X_U1.20)    4.9437                   (X_U1.21)     .0026                       

(X_U1.22)     .5661                   (X_U1.23)    2.7206                       

(X_U1.24)    2.2101                   (X_U1.25)    1.6660                       

(X_U1.26)     .7481                   (X_U1.27)     .7096                       

(X_U1.28)     .1952                   (X_U1.29)     .7020                       

(X_U1.30)    2.8119                   (X_U1.31)    2.3611                       

(X_U1.32)    2.2063                   




    VOLTAGE SOURCE CURRENTS
    NAME         CURRENT

    V_V2         0.000E+00
    V_Vcc       -9.023E-03

    TOTAL POWER DISSIPATION   4.51E-02  WATTS



          JOB CONCLUDED

          TOTAL JOB TIME             .42
