
**** 04/20/15 16:01:21 ********* PSpice 9.2 (Mar 2000) ******** ID# 1 ********

 ** Profile: "SCHEMATIC1-sp"  [ c:\users\winda\desktop\saic\saic\sim\zas-schematic1-sp.sim ] 


 ****     CIRCUIT DESCRIPTION


******************************************************************************




** Creating circuit file "zas-schematic1-sp.sim.cir" 
** WARNING: THIS AUTOMATICALLY GENERATED FILE MAY BE OVERWRITTEN BY SUBSEQUENT SIMULATIONS

*Libraries: 
* Local Libraries :
* From [PSPICE NETLIST] section of C:\Program Files\Orcad\PSpice\PSpice.ini file:
.lib "nom.lib" 

*Analysis directives: 
.TRAN  0 10ms 0 
.PROBE V(*) I(*) W(*) D(*) NOISE(*) 
.INC ".\zas-SCHEMATIC1.net" 



**** INCLUDING zas-SCHEMATIC1.net ****
* source ZAS
C_C3         0 N12428  1n  
C_C2         0 N09334  100n  
Q_Q1         N10683 N10852 0 BC107A 
C_C4         0 N09334  100u  
C_C5         N12179 N10852  1n  
R_R4         N09334 N12179  1k  
R_Rb         N10683 N09604  910  
R_Ra         N09604 N09334  910  
R_R3         N10005 N09334  1k  
V_V3         N09334 0 5Vdc
D_D1         N10852 0 D1N3064 
C_C         0 N12226  1n  
R_R2         0 N10852  1k  
X_U1         0 N10005 OUTPUT N09334 N12428 N09604 N12226 N09334 555B

**** RESUMING zas-schematic1-sp.sim.cir ****
.END

**** 04/20/15 16:01:21 ********* PSpice 9.2 (Mar 2000) ******** ID# 1 ********

 ** Profile: "SCHEMATIC1-sp"  [ c:\users\winda\desktop\saic\saic\sim\zas-schematic1-sp.sim ] 


 ****     Diode MODEL PARAMETERS


******************************************************************************




               D1N3064         
          IS  168.100000E-21 
         ISR   24.540000E-09 
          BV  100            
         IBV  100.000000E-06 
          RS     .1          
          TT    5.771000E-09 
         CJO    2.000000E-12 
          VJ     .75         
           M     .3333       


**** 04/20/15 16:01:21 ********* PSpice 9.2 (Mar 2000) ******** ID# 1 ********

 ** Profile: "SCHEMATIC1-sp"  [ c:\users\winda\desktop\saic\saic\sim\zas-schematic1-sp.sim ] 


 ****     BJT MODEL PARAMETERS


******************************************************************************




               BC107A          X_U1.qnpn555    X_U1.qpnp555    
               NPN             NPN             PNP             
          IS    7.049000E-15   14.340000E-15  650.600000E-18 
          BF  375.5            65.62           70.35         
          NF    1               1               1            
         VAF  116.3            74.03          115.7          
         IKF    4.589            .02             .02         
         ISE    7.049000E-15   19.480000E-15  180.500000E-15 
          NE    1.281           1.208           1.829        
          BR    2.611           9.715           4.146        
          NR    1               1               1            
         IKR    5.313                                        
         ISC  121.700000E-12                                 
          NC    1.865                                        
          RB                   10              10            
          RC    1.464           1                .715        
         CJE   11.500000E-12   40.000000E-12   40.000000E-12 
         VJE     .5                                          
         MJE     .2717           .377            .3357       
         CJC    5.380000E-12   40.000000E-12   40.000000E-12 
         VJC     .6218                                       
         MJC     .329            .3416           .5383       
          TF  451.000000E-12    1.000000E-09    1.000000E-09 
         XTF   17.43            3               1.7          
         VTF   10               1.7             5            
         ITF    6.194            .6              .65         
          TR   10.000000E-09   58.980000E-09  119.900000E-09 
         XTB    1.5             1.5             1.5          
          CN    2.42            2.42            2.2          
           D     .87             .87             .52         


**** 04/20/15 16:01:21 ********* PSpice 9.2 (Mar 2000) ******** ID# 1 ********

 ** Profile: "SCHEMATIC1-sp"  [ c:\users\winda\desktop\saic\saic\sim\zas-schematic1-sp.sim ] 


 ****     INITIAL TRANSIENT SOLUTION       TEMPERATURE =   27.000 DEG C


******************************************************************************



 NODE   VOLTAGE     NODE   VOLTAGE     NODE   VOLTAGE     NODE   VOLTAGE


(N09334)    5.0000 (N09604)    4.9353 (N10005)    5.0000 (N10683)    4.9353     

(N10852) 123.5E-09 (N12179)    5.0000 (N12226)     .0030 (N12428)    3.3334     

(OUTPUT)     .0037 (X_U1.9)    4.2932 (X_U1.10)    1.4331                       

(X_U1.11)     .7446                   (X_U1.12)     .0207                       

(X_U1.13)     .6625                   (X_U1.14)     .6610                       

(X_U1.15)    1.3308                   (X_U1.16)     .1382                       

(X_U1.17)    4.8686                   (X_U1.18)    4.3060                       

(X_U1.19)    2.8610                   (X_U1.20)    4.9438                       

(X_U1.21)     .0026                   (X_U1.22)     .5661                       

(X_U1.23)    2.7213                   (X_U1.24)    2.2108                       

(X_U1.25)    1.6668                   (X_U1.26)     .7321                       

(X_U1.27)     .6853                   (X_U1.28)     .1812                       

(X_U1.29)     .6948                   (X_U1.30)    3.8140                       

(X_U1.31)    4.3063                   (X_U1.32)    3.6867                   




    VOLTAGE SOURCE CURRENTS
    NAME         CURRENT

    V_V3        -2.747E-03

    TOTAL POWER DISSIPATION   1.37E-02  WATTS



          JOB CONCLUDED

          TOTAL JOB TIME             .03
